
SetupTitle, SOICMOS-INV-pMOS-IdVd
PrimitiveTest, I/V Sweep
TestParameter, Context.MainFrame, B1500A
TestParameter, Channel.UnitType, SMU, SMU, SMU
TestParameter, Channel.Unit, SMU1:HR/AS, SMU4:HR, SMU2:HR/AS
TestParameter, Channel.IName, Id, Is, Ig
TestParameter, Channel.VName, Vd, Vs, Vg
TestParameter, Channel.Mode, V, V, V
TestParameter, Channel.Func, VAR1, CONST, VAR2
TestParameter, Channel.Index, 
TestParameter, Channel.Time, 
TestParameter, Measurement.Port.Unit, SMU1:HR/AS, SMU4:HR, SMU2:HR/AS
TestParameter, Measurement.Port.SeriesResistor, NONE, NONE, NONE
TestParameter, Measurement.Port.Filter, ON, ON, ON
TestParameter, Measurement.Port.OutputVoltageComparison, 0, 0, 0
TestParameter, Measurement.Primary.Locus, Single
TestParameter, Measurement.Primary.Scale, LINEAR
TestParameter, Measurement.Primary.Start, 0
TestParameter, Measurement.Primary.Stop, -3
TestParameter, Measurement.Primary.Step, -0.06
TestParameter, Measurement.Primary.Compliance, 0.01
TestParameter, Measurement.Primary.PowerCompliance, 0
TestParameter, Measurement.Aborting.Condition, CONTINUE AT ANY
TestParameter, Measurement.PostOutput.Value, START
TestParameter, Measurement.PostOutput.Retention, OFF
TestParameter, Measurement.Secondary.Start, 0
TestParameter, Measurement.Secondary.Count, 7
TestParameter, Measurement.Secondary.Step, -0.5
TestParameter, Measurement.Secondary.Compliance, 0.003
TestParameter, Measurement.Secondary.PowerCompliance, 0
TestParameter, Measurement.Bias.Source, 0, 0, 0
TestParameter, Measurement.Bias.Compliance, 0.01, 0.1, 0.003
TestParameter, Measurement.Monitor.Unit, SMU1:HR/AS, SMU4:HR, SMU2:HR/AS
TestParameter, Measurement.Monitor.Adc, HR ADC, HR ADC, HR ADC
TestParameter, Measurement.Monitor.Measurement, Compliance Side, Compliance Side, Compliance Side
TestParameter, Measurement.Monitor.RangingMode, LIMITED, LIMITED, LIMITED
TestParameter, Measurement.Monitor.RangeBoundary, 1nA, 1nA, 1nA
TestParameter, Measurement.Monitor.RangeRating, BY FULL RANGE, BY FULL RANGE, BY FULL RANGE
TestParameter, Measurement.Monitor.RangeRatingCoeff, 50, 50, 50
TestParameter, Measurement.Timing.Hold, 0.1
TestParameter, Measurement.Timing.Delay, 0.1
TestParameter, Measurement.Adc.HighSpeed.Mode, PLC
TestParameter, Measurement.Adc.HighSpeed.Coeff, 1
TestParameter, Measurement.Adc.HighResolution.AutoZero, OFF
TestParameter, Measurement.Adc.HighResolution.Mode, PLC
TestParameter, Measurement.Adc.HighResolution.Coeff, 1
TestParameter, Measurement.WaitTime.Source.Coeff, 1
TestParameter, Measurement.WaitTime.Source.Offset, 0
TestParameter, Measurement.WaitTime.Monitor.Coeff, 1
TestParameter, Measurement.WaitTime.Monitor.Offset, 0
TestParameter, Output.Graph.Enabled, true
TestParameter, Output.Graph.AutoScaling, false
TestParameter, Output.Graph.XAxis.Data, Vd
TestParameter, Output.Graph.XAxis.Scale, Linear
TestParameter, Output.Graph.XAxis.Left, -3
TestParameter, Output.Graph.XAxis.Right, 0
TestParameter, Output.Graph.XAxis.RunTimeAutoScale, false
TestParameter, Output.Graph.YAxis.Data, Id
TestParameter, Output.Graph.YAxis.Scale, Linear
TestParameter, Output.Graph.YAxis.Bottom, 0
TestParameter, Output.Graph.YAxis.Top, -0.001
TestParameter, Output.Graph.YAxis.Group, 
TestParameter, Output.Graph.YAxis.RunTimeAutoScale, true
TestParameter, Output.List.Data, Vd, Vg, Id, Is, Ig
TestParameter, AutoAnalysis.Interpolation, false
TestParameter, AutoAnalysis.Line1.Enabled, false
TestParameter, AutoAnalysis.Line1.Type, 1
TestParameter, AutoAnalysis.Line1.Fix, True
TestParameter, AutoAnalysis.Line1.YAxis, 0
TestParameter, AutoAnalysis.Line1.Point1.Type, 0
TestParameter, AutoAnalysis.Line1.Point1.XY.X, 
TestParameter, AutoAnalysis.Line1.Point1.XY.Y, 
TestParameter, AutoAnalysis.Line1.Point1.Data.Var, 
TestParameter, AutoAnalysis.Line1.Point1.Data.Condition, 
TestParameter, AutoAnalysis.Line1.Point1.Data.Start, false
TestParameter, AutoAnalysis.Line1.Point1.Data.StartVar, 
TestParameter, AutoAnalysis.Line1.Point1.Data.StartCondition, 
TestParameter, AutoAnalysis.Line1.Point2.Type, 0
TestParameter, AutoAnalysis.Line1.Point2.XY.X, 
TestParameter, AutoAnalysis.Line1.Point2.XY.Y, 
TestParameter, AutoAnalysis.Line1.Point2.Data.Var, 
TestParameter, AutoAnalysis.Line1.Point2.Data.Condition, 
TestParameter, AutoAnalysis.Line1.Point2.Data.Start, false
TestParameter, AutoAnalysis.Line1.Point2.Data.StartVar, 
TestParameter, AutoAnalysis.Line1.Point2.Data.StartCondition, 
TestParameter, AutoAnalysis.Line1.GradientExpr, 0
TestParameter, AutoAnalysis.Line2.Enabled, false
TestParameter, AutoAnalysis.Line2.Type, 1
TestParameter, AutoAnalysis.Line2.Fix, True
TestParameter, AutoAnalysis.Line2.YAxis, 0
TestParameter, AutoAnalysis.Line2.Point1.Type, 0
TestParameter, AutoAnalysis.Line2.Point1.XY.X, 
TestParameter, AutoAnalysis.Line2.Point1.XY.Y, 
TestParameter, AutoAnalysis.Line2.Point1.Data.Var, 
TestParameter, AutoAnalysis.Line2.Point1.Data.Condition, 
TestParameter, AutoAnalysis.Line2.Point1.Data.Start, false
TestParameter, AutoAnalysis.Line2.Point1.Data.StartVar, 
TestParameter, AutoAnalysis.Line2.Point1.Data.StartCondition, 
TestParameter, AutoAnalysis.Line2.Point2.Type, 0
TestParameter, AutoAnalysis.Line2.Point2.XY.X, 
TestParameter, AutoAnalysis.Line2.Point2.XY.Y, 
TestParameter, AutoAnalysis.Line2.Point2.Data.Var, 
TestParameter, AutoAnalysis.Line2.Point2.Data.Condition, 
TestParameter, AutoAnalysis.Line2.Point2.Data.Start, false
TestParameter, AutoAnalysis.Line2.Point2.Data.StartVar, 
TestParameter, AutoAnalysis.Line2.Point2.Data.StartCondition, 
TestParameter, AutoAnalysis.Line2.GradientExpr, 0
TestParameter, AutoAnalysis.Marker.Enabled, false
TestParameter, AutoAnalysis.Marker.Data.Var, 
TestParameter, AutoAnalysis.Marker.Data.Condition, 
TestParameter, AutoAnalysis.Marker.Data.Start, false
TestParameter, AutoAnalysis.Marker.Data.StartVar, 
TestParameter, AutoAnalysis.Marker.Data.StartCondition, 
MetaData, TestRecord.EntryPoint, true
MetaData, TestRecord.RecordTime, 07/12/2024 16:48:08
MetaData, TestRecord.TestTarget, 
MetaData, TestRecord.IterationIndex, 2
MetaData, TestRecord.Preservation, true
MetaData, TestRecord.Flag, 
MetaData, TestRecord.Remarks, #63 B1 PFET idvd
MetaData, TestRecord.LinkKey, 8fc29a85-9f0e-4da8-9df6-a0bb5d807cd3
Dimension1, 51, 51, 51, 51, 51
Dimension2, 7, 7, 7, 7, 7
DataName, Vd, Vg, Id, Is, Ig
DataValue, 0, 0, 1.75E-13, -3.8E-14, 7.6E-14
DataValue, -0.06, 0, -4.3100000000000003E-13, 4.8000000000000004E-14, 8.9000000000000012E-14
DataValue, -0.12, 0, -6.63E-13, 1.23E-13, 1.4E-13
DataValue, -0.18, 0, -8.9E-13, 2.6600000000000003E-13, 2.91E-13
DataValue, -0.24, 0, -1.051E-12, 3.05E-13, 3.4600000000000004E-13
DataValue, -0.3, 0, -1.3440000000000001E-12, 3.17E-13, 2.81E-13
DataValue, -0.36, 0, -1.3510000000000002E-12, 3.6900000000000004E-13, 4.36E-13
DataValue, -0.42, 0, -1.4130000000000001E-12, 3.9200000000000005E-13, 4.12E-13
DataValue, -0.48, 0, -1.5200000000000002E-12, 4.1600000000000004E-13, 5.2400000000000009E-13
DataValue, -0.54, 0, -1.6780000000000001E-12, 4.65E-13, 5.93E-13
DataValue, -0.6, 0, -1.7660000000000002E-12, 4.69E-13, 6.1900000000000009E-13
DataValue, -0.66, 0, -1.967E-12, 4.95E-13, 5.7900000000000006E-13
DataValue, -0.72, 0, -2.015E-12, 5.92E-13, 5.83E-13
DataValue, -0.78, 0, -2.123E-12, 5.63E-13, 6.83E-13
DataValue, -0.84, 0, -2.1670000000000004E-12, 5.9E-13, 6.4300000000000009E-13
DataValue, -0.9, 0, -2.285E-12, 5.9900000000000007E-13, 6.9700000000000006E-13
DataValue, -0.96, 0, -2.278E-12, 6.31E-13, 7.7000000000000005E-13
DataValue, -1.02, 0, -2.428E-12, 6.4500000000000008E-13, 7.04E-13
DataValue, -1.08, 0, -2.3670000000000003E-12, 6.9400000000000007E-13, 7.94E-13
DataValue, -1.1400000000000001, 0, -2.5390000000000004E-12, 7.06E-13, 8.780000000000001E-13
DataValue, -1.2, 0, -2.6510000000000003E-12, 7.4100000000000007E-13, 7.8600000000000008E-13
DataValue, -1.26, 0, -2.6590000000000003E-12, 7.24E-13, 8.44E-13
DataValue, -1.32, 0, -2.8680000000000003E-12, 1.0160000000000001E-12, 9.5800000000000016E-13
DataValue, -1.3800000000000001, 0, -2.9020000000000004E-12, 9.96E-13, 1.0160000000000001E-12
DataValue, -1.44, 0, -2.978E-12, 8.5800000000000008E-13, 1.1060000000000001E-12
DataValue, -1.5, 0, -3.1610000000000004E-12, 8.7500000000000011E-13, 1.0870000000000001E-12
DataValue, -1.56, 0, -3.171E-12, 9.67E-13, 1.214E-12
DataValue, -1.62, 0, -3.2900000000000003E-12, 9.88E-13, 1.2630000000000002E-12
DataValue, -1.68, 0, -3.5480000000000002E-12, 1.061E-12, 1.3170000000000001E-12
DataValue, -1.74, 0, -3.695E-12, 1.055E-12, 1.433E-12
DataValue, -1.8, 0, -3.897E-12, 1.1080000000000001E-12, 1.6430000000000002E-12
DataValue, -1.86, 0, -4.1210000000000007E-12, 1.157E-12, 1.5950000000000002E-12
DataValue, -1.92, 0, -4.3550000000000007E-12, 1.233E-12, 1.8140000000000002E-12
DataValue, -1.98, 0, -4.6110000000000004E-12, 1.36E-12, 1.944E-12
DataValue, -2.04, 0, -4.914E-12, 1.4880000000000001E-12, 2.034E-12
DataValue, -2.1, 0, -5.3890000000000006E-12, 1.517E-12, 2.165E-12
DataValue, -2.16, 0, -5.6070000000000006E-12, 1.7510000000000001E-12, 2.541E-12
DataValue, -2.22, 0, -6.0540000000000007E-12, 1.888E-12, 2.615E-12
DataValue, -2.2800000000000002, 0, -6.342E-12, 1.921E-12, 2.912E-12
DataValue, -2.34, 0, -6.768E-12, 2.1460000000000003E-12, 3.104E-12
DataValue, -2.4, 0, -7.273E-12, 2.2920000000000003E-12, 3.4310000000000002E-12
DataValue, -2.46, 0, -7.8020000000000009E-12, 2.4630000000000003E-12, 3.6690000000000006E-12
DataValue, -2.52, 0, -8.36E-12, 2.849E-12, 3.9690000000000006E-12
DataValue, -2.58, 0, -8.915E-12, 3.0740000000000004E-12, 4.3950000000000006E-12
DataValue, -2.64, 0, -9.6970000000000012E-12, 3.296E-12, 4.849E-12
DataValue, -2.7, 0, -1.0564E-11, 3.6960000000000004E-12, 5.4100000000000006E-12
DataValue, -2.7600000000000002, 0, -1.1653000000000001E-11, 4.215E-12, 5.9120000000000007E-12
DataValue, -2.82, 0, -1.2585000000000001E-11, 4.6320000000000005E-12, 6.6350000000000007E-12
DataValue, -2.88, 0, -1.3887000000000002E-11, 5.0210000000000005E-12, 7.377E-12
DataValue, -2.94, 0, -1.54E-11, 5.6250000000000008E-12, 8.1580000000000014E-12
DataValue, -3, 0, -1.69E-11, 6.305E-12, 9.2160000000000011E-12
DataValue, 0, -0.5, -2.56467E-09, 1.92108E-09, -3.894E-12
DataValue, -0.06, -0.5, -2.0569799999999997E-08, 2.0515699999999997E-08, -2.9520000000000003E-12
DataValue, -0.12, -0.5, -2.4871099999999997E-08, 2.4843499999999997E-08, -2.499E-12
DataValue, -0.18, -0.5, -2.56792E-08, 2.5636599999999998E-08, -2.072E-12
DataValue, -0.24, -0.5, -2.6111599999999997E-08, 2.6153799999999996E-08, -1.6070000000000001E-12
DataValue, -0.3, -0.5, -2.6541699999999997E-08, 2.65443E-08, -1.4E-12
DataValue, -0.36, -0.5, -2.6806399999999997E-08, 2.6771899999999998E-08, -1.147E-12
DataValue, -0.42, -0.5, -2.7227499999999997E-08, 2.73154E-08, -8.8700000000000006E-13
DataValue, -0.48, -0.5, -2.76476E-08, 2.7674199999999998E-08, -7.95E-13
DataValue, -0.54, -0.5, -2.8178699999999997E-08, 2.8144499999999998E-08, -6.11E-13
DataValue, -0.6, -0.5, -2.8680799999999996E-08, 2.8607199999999997E-08, -4.87E-13
DataValue, -0.66, -0.5, -2.9131799999999998E-08, 2.9223599999999996E-08, -4.4000000000000004E-13
DataValue, -0.72, -0.5, -2.9751599999999996E-08, 2.9786099999999998E-08, -2.9800000000000004E-13
DataValue, -0.78, -0.5, -3.03345E-08, 3.0303E-08, -2.23E-13
DataValue, -0.84, -0.5, -3.09033E-08, 3.09114E-08, -1.0500000000000001E-13
DataValue, -0.9, -0.5, -3.1577199999999996E-08, 3.15337E-08, -1.36E-13
DataValue, -0.96, -0.5, -3.21814E-08, 3.21533E-08, 1.7E-14
DataValue, -1.02, -0.5, -3.2954899999999994E-08, 3.3005699999999995E-08, 4.8000000000000004E-14
DataValue, -1.08, -0.5, -3.3651399999999997E-08, 3.3729E-08, 9.0000000000000008E-14
DataValue, -1.1400000000000001, -0.5, -3.44622E-08, 3.45947E-08, 2.1400000000000002E-13
DataValue, -1.2, -0.5, -3.52732E-08, 3.53038E-08, 1.1000000000000001E-13
DataValue, -1.26, -0.5, -3.61416E-08, 3.6233299999999994E-08, 3.74E-13
DataValue, -1.32, -0.5, -3.6918499999999994E-08, 3.6982299999999996E-08, 2.91E-13
DataValue, -1.3800000000000001, -0.5, -3.7922399999999996E-08, 3.78019E-08, 3.14E-13
DataValue, -1.44, -0.5, -3.8650199999999996E-08, 3.8705499999999995E-08, 3.89E-13
DataValue, -1.5, -0.5, -3.96031E-08, 3.9713299999999996E-08, 4.3800000000000005E-13
DataValue, -1.56, -0.5, -4.04361E-08, 4.0620499999999996E-08, 4.3000000000000004E-13
DataValue, -1.62, -0.5, -4.1383999999999995E-08, 4.14998E-08, 4.6200000000000005E-13
DataValue, -1.68, -0.5, -4.23817E-08, 4.24763E-08, 5.17E-13
DataValue, -1.74, -0.5, -4.3520199999999993E-08, 4.3618999999999995E-08, 6.0100000000000006E-13
DataValue, -1.8, -0.5, -4.45539E-08, 4.4675999999999996E-08, 5.85E-13
DataValue, -1.86, -0.5, -4.55388E-08, 4.56717E-08, 5.87E-13
DataValue, -1.92, -0.5, -4.68145E-08, 4.68562E-08, 6.54E-13
DataValue, -1.98, -0.5, -4.8157399999999994E-08, 4.8152299999999996E-08, 7.4000000000000008E-13
DataValue, -2.04, -0.5, -4.9275099999999995E-08, 4.9386299999999993E-08, 7.09E-13
DataValue, -2.1, -0.5, -5.0684799999999996E-08, 5.0701899999999994E-08, 8E-13
DataValue, -2.16, -0.5, -5.2023499999999996E-08, 5.2185499999999994E-08, 8.1400000000000007E-13
DataValue, -2.22, -0.5, -5.3297299999999994E-08, 5.3520899999999995E-08, 8.8200000000000008E-13
DataValue, -2.2800000000000002, -0.5, -5.5020299999999995E-08, 5.5195499999999993E-08, 9.86E-13
DataValue, -2.34, -0.5, -5.6604799999999992E-08, 5.6713799999999997E-08, 1.1040000000000001E-12
DataValue, -2.4, -0.5, -5.81968E-08, 5.8303599999999995E-08, 1.134E-12
DataValue, -2.46, -0.5, -6.00284E-08, 6.01056E-08, 1.132E-12
DataValue, -2.52, -0.5, -6.18039E-08, 6.1894799999999989E-08, 1.4190000000000001E-12
DataValue, -2.58, -0.5, -6.3888399999999991E-08, 6.40948E-08, 1.4400000000000001E-12
DataValue, -2.64, -0.5, -6.5911499999999988E-08, 6.60473E-08, 1.6100000000000002E-12
DataValue, -2.7, -0.5, -6.81708E-08, 6.8455599999999993E-08, 1.671E-12
DataValue, -2.7600000000000002, -0.5, -7.0489299999999993E-08, 7.06619E-08, 1.858E-12
DataValue, -2.82, -0.5, -7.29937E-08, 7.32994E-08, 2.0200000000000003E-12
DataValue, -2.88, -0.5, -7.5469099999999991E-08, 7.5724099999999989E-08, 2.28E-12
DataValue, -2.94, -0.5, -7.81603E-08, 7.8394099999999986E-08, 2.523E-12
DataValue, -3, -0.5, -8.0811899999999991E-08, 8.0995999999999993E-08, 2.8140000000000003E-12
DataValue, 0, -1, -2.40179E-09, 2.30534E-09, -5.7540000000000007E-12
DataValue, -0.06, -1, -7.5578E-07, 7.54898E-07, -4.396E-12
DataValue, -0.12, -1, -1.3480200000000002E-06, 1.3457100000000002E-06, -3.3650000000000003E-12
DataValue, -0.18, -1, -1.8314700000000002E-06, 1.8299100000000001E-06, -2.786E-12
DataValue, -0.24, -1, -2.2225000000000003E-06, 2.2211200000000003E-06, -2.3800000000000004E-12
DataValue, -0.3, -1, -2.5279000000000004E-06, 2.5267600000000003E-06, -2.0410000000000003E-12
DataValue, -0.36, -1, -2.7564400000000002E-06, 2.75547E-06, -1.709E-12
DataValue, -0.42, -1, -2.9184200000000004E-06, 2.9172200000000003E-06, -1.506E-12
DataValue, -0.48, -1, -3.0268300000000004E-06, 3.0256500000000004E-06, -1.366E-12
DataValue, -0.54, -1, -3.0950000000000004E-06, 3.09387E-06, -1.185E-12
DataValue, -0.6, -1, -3.1394200000000005E-06, 3.1384800000000004E-06, -9.8700000000000014E-13
DataValue, -0.66, -1, -3.1696100000000004E-06, 3.1688700000000003E-06, -9.53E-13
DataValue, -0.72, -1, -3.1935100000000003E-06, 3.1930100000000005E-06, -7.4200000000000007E-13
DataValue, -0.78, -1, -3.2121600000000005E-06, 3.21184E-06, -6.36E-13
DataValue, -0.84, -1, -3.2306900000000004E-06, 3.2305000000000002E-06, -5.7600000000000007E-13
DataValue, -0.9, -1, -3.2477300000000002E-06, 3.2473800000000003E-06, -5.45E-13
DataValue, -0.96, -1, -3.2640000000000004E-06, 3.2630600000000003E-06, -3.42E-13
DataValue, -1.02, -1, -3.27938E-06, 3.2793600000000005E-06, -3.6000000000000003E-13
DataValue, -1.08, -1, -3.2956800000000004E-06, 3.2951300000000004E-06, -2.9900000000000004E-13
DataValue, -1.1400000000000001, -1, -3.3116100000000005E-06, 3.31203E-06, -2.2200000000000001E-13
DataValue, -1.2, -1, -3.3280700000000004E-06, 3.3276400000000004E-06, -1.93E-13
DataValue, -1.26, -1, -3.3431000000000002E-06, 3.34371E-06, -1.29E-13
DataValue, -1.32, -1, -3.3607300000000003E-06, 3.3607500000000004E-06, -8.1000000000000008E-14
DataValue, -1.3800000000000001, -1, -3.3777400000000005E-06, 3.3774700000000003E-06, 3.2E-14
DataValue, -1.44, -1, -3.3930500000000005E-06, 3.39244E-06, -1.25E-13
DataValue, -1.5, -1, -3.4105100000000005E-06, 3.41062E-06, 1.6E-14
DataValue, -1.56, -1, -3.4276300000000004E-06, 3.4277200000000004E-06, 9.3000000000000008E-14
DataValue, -1.62, -1, -3.4445800000000003E-06, 3.4446300000000004E-06, 1.7900000000000002E-13
DataValue, -1.68, -1, -3.4618700000000003E-06, 3.4618300000000004E-06, 1.06E-13
DataValue, -1.74, -1, -3.4789300000000002E-06, 3.4790900000000004E-06, 1.0700000000000001E-13
DataValue, -1.8, -1, -3.4973000000000004E-06, 3.4976200000000003E-06, 1.8600000000000002E-13
DataValue, -1.86, -1, -3.5160300000000003E-06, 3.5167100000000004E-06, 1.69E-13
DataValue, -1.92, -1, -3.5337300000000006E-06, 3.5343E-06, 2.58E-13
DataValue, -1.98, -1, -3.5547500000000006E-06, 3.5541200000000005E-06, 3.2100000000000005E-13
DataValue, -2.04, -1, -3.5736800000000005E-06, 3.5738900000000004E-06, 2.59E-13
DataValue, -2.1, -1, -3.5941900000000004E-06, 3.5948100000000006E-06, 3.1300000000000003E-13
DataValue, -2.16, -1, -3.6141800000000004E-06, 3.6149700000000006E-06, 3.2000000000000005E-13
DataValue, -2.22, -1, -3.6348700000000006E-06, 3.6356300000000004E-06, 3.5900000000000004E-13
DataValue, -2.2800000000000002, -1, -3.6587400000000005E-06, 3.6590800000000005E-06, 3.8500000000000003E-13
DataValue, -2.34, -1, -3.6834200000000003E-06, 3.6843500000000006E-06, 4.66E-13
DataValue, -2.4, -1, -3.7085000000000006E-06, 3.7089E-06, 4.1400000000000005E-13
DataValue, -2.46, -1, -3.7331100000000006E-06, 3.73466E-06, 4.35E-13
DataValue, -2.52, -1, -3.7609000000000003E-06, 3.7627400000000002E-06, 6.76E-13
DataValue, -2.58, -1, -3.7908100000000005E-06, 3.7917600000000004E-06, 6.62E-13
DataValue, -2.64, -1, -3.81934E-06, 3.82141E-06, 7.9100000000000006E-13
DataValue, -2.7, -1, -3.8519E-06, 3.8541300000000005E-06, 8.4000000000000006E-13
DataValue, -2.7600000000000002, -1, -3.88602E-06, 3.8874800000000008E-06, 8.3600000000000007E-13
DataValue, -2.82, -1, -3.92222E-06, 3.92352E-06, 9.1000000000000016E-13
DataValue, -2.88, -1, -3.96122E-06, 3.9636000000000005E-06, 9.57E-13
DataValue, -2.94, -1, -4.00113E-06, 4.0030600000000004E-06, 1.1000000000000002E-12
DataValue, -3, -1, -4.04065E-06, 4.04404E-06, 1.258E-12
DataValue, 0, -1.5, -1.35203E-08, 1.3535099999999999E-08, -6.834E-12
DataValue, -0.06, -1.5, -4.4618200000000008E-06, 4.4506E-06, -4.9660000000000004E-12
DataValue, -0.12, -1.5, -8.31993E-06, 8.312120000000001E-06, -4.1640000000000004E-12
DataValue, -0.18, -1.5, -1.15656E-05, 1.15505E-05, -3.3690000000000003E-12
DataValue, -0.24, -1.5, -1.42606E-05, 1.42551E-05, -2.992E-12
DataValue, -0.3, -1.5, -1.64325E-05, 1.64263E-05, -2.57E-12
DataValue, -0.36, -1.5, -1.81314E-05, 1.81303E-05, -2.2630000000000004E-12
DataValue, -0.42, -1.5, -1.94617E-05, 1.94652E-05, -2.0080000000000003E-12
DataValue, -0.48, -1.5, -2.05152E-05, 2.05168E-05, -1.843E-12
DataValue, -0.54, -1.5, -2.13648E-05, 2.13667E-05, -1.4780000000000002E-12
DataValue, -0.6, -1.5, -2.2084700000000002E-05, 2.20838E-05, -1.4400000000000001E-12
DataValue, -0.66, -1.5, -2.2688E-05, 2.26891E-05, -1.1940000000000002E-12
DataValue, -0.72, -1.5, -2.32067E-05, 2.32068E-05, -1.153E-12
DataValue, -0.78, -1.5, -2.3640500000000002E-05, 2.3643800000000002E-05, -1.0540000000000002E-12
DataValue, -0.84, -1.5, -2.40056E-05, 2.4008600000000003E-05, -8.9900000000000011E-13
DataValue, -0.9, -1.5, -2.43074E-05, 2.43088E-05, -8.7900000000000009E-13
DataValue, -0.96, -1.5, -2.4561500000000002E-05, 2.4562E-05, -7.94E-13
DataValue, -1.02, -1.5, -2.47629E-05, 2.47645E-05, -6.3E-13
DataValue, -1.08, -1.5, -2.4929400000000002E-05, 2.49337E-05, -5.68E-13
DataValue, -1.1400000000000001, -1.5, -2.50629E-05, 2.50694E-05, -5.86E-13
DataValue, -1.2, -1.5, -2.51817E-05, 2.51851E-05, -4.7900000000000008E-13
