
SetupTitle, SOICMOS-INV-nMOS-IdVd
PrimitiveTest, I/V Sweep
TestParameter, Context.MainFrame, B1500A
TestParameter, Channel.UnitType, SMU, SMU, SMU
TestParameter, Channel.Unit, SMU4:HR, SMU1:HR/AS, SMU2:HR/AS
TestParameter, Channel.IName, Is, Id, Ig
TestParameter, Channel.VName, Vs, Vd, Vg
TestParameter, Channel.Mode, COMMON, V, V
TestParameter, Channel.Func, CONST, VAR1, VAR2
TestParameter, Channel.Index, 
TestParameter, Channel.Time, 
TestParameter, Measurement.Port.Unit, SMU4:HR, SMU1:HR/AS, SMU2:HR/AS
TestParameter, Measurement.Port.SeriesResistor, NONE, NONE, NONE
TestParameter, Measurement.Port.Filter, ON, ON, ON
TestParameter, Measurement.Port.OutputVoltageComparison, 0, 0, 0
TestParameter, Measurement.Primary.Locus, Single
TestParameter, Measurement.Primary.Scale, LINEAR
TestParameter, Measurement.Primary.Start, 0
TestParameter, Measurement.Primary.Stop, 3
TestParameter, Measurement.Primary.Step, 0.06
TestParameter, Measurement.Primary.Compliance, 0.1
TestParameter, Measurement.Primary.PowerCompliance, 0
TestParameter, Measurement.Aborting.Condition, CONTINUE AT ANY
TestParameter, Measurement.PostOutput.Value, START
TestParameter, Measurement.PostOutput.Retention, OFF
TestParameter, Measurement.Secondary.Start, 0
TestParameter, Measurement.Secondary.Count, 7
TestParameter, Measurement.Secondary.Step, 0.5
TestParameter, Measurement.Secondary.Compliance, 0.01
TestParameter, Measurement.Secondary.PowerCompliance, 0
TestParameter, Measurement.Bias.Source, 0, 0, 0
TestParameter, Measurement.Bias.Compliance, 0.1, 0.1, 0.01
TestParameter, Measurement.Monitor.Unit, SMU1:HR/AS, SMU2:HR/AS, SMU4:HR
TestParameter, Measurement.Monitor.Adc, HR ADC, HR ADC, HR ADC
TestParameter, Measurement.Monitor.Measurement, Compliance Side, Compliance Side, Compliance Side
TestParameter, Measurement.Monitor.RangingMode, LIMITED, LIMITED, LIMITED
TestParameter, Measurement.Monitor.RangeBoundary, 1nA, 1nA, 1nA
TestParameter, Measurement.Monitor.RangeRating, BY FULL RANGE, BY FULL RANGE, BY FULL RANGE
TestParameter, Measurement.Monitor.RangeRatingCoeff, 50, 50, 50
TestParameter, Measurement.Timing.Hold, 0.1
TestParameter, Measurement.Timing.Delay, 0.1
TestParameter, Measurement.Adc.HighSpeed.Mode, PLC
TestParameter, Measurement.Adc.HighSpeed.Coeff, 1
TestParameter, Measurement.Adc.HighResolution.AutoZero, OFF
TestParameter, Measurement.Adc.HighResolution.Mode, PLC
TestParameter, Measurement.Adc.HighResolution.Coeff, 1
TestParameter, Measurement.WaitTime.Source.Coeff, 1
TestParameter, Measurement.WaitTime.Source.Offset, 0
TestParameter, Measurement.WaitTime.Monitor.Coeff, 1
TestParameter, Measurement.WaitTime.Monitor.Offset, 0
TestParameter, Output.Graph.Enabled, true
TestParameter, Output.Graph.AutoScaling, false
TestParameter, Output.Graph.XAxis.Data, Vd
TestParameter, Output.Graph.XAxis.Scale, Linear
TestParameter, Output.Graph.XAxis.Left, 0
TestParameter, Output.Graph.XAxis.Right, 5
TestParameter, Output.Graph.XAxis.RunTimeAutoScale, true
TestParameter, Output.Graph.YAxis.Data, Id
TestParameter, Output.Graph.YAxis.Scale, Linear
TestParameter, Output.Graph.YAxis.Bottom, 0
TestParameter, Output.Graph.YAxis.Top, 0.005
TestParameter, Output.Graph.YAxis.Group, 
TestParameter, Output.Graph.YAxis.RunTimeAutoScale, true
TestParameter, Output.List.Data, Vd, Vg, Id, Is, Ig
TestParameter, AutoAnalysis.Interpolation, false
TestParameter, AutoAnalysis.Line1.Enabled, false
TestParameter, AutoAnalysis.Line1.Type, 1
TestParameter, AutoAnalysis.Line1.Fix, True
TestParameter, AutoAnalysis.Line1.YAxis, 0
TestParameter, AutoAnalysis.Line1.Point1.Type, 0
TestParameter, AutoAnalysis.Line1.Point1.XY.X, 
TestParameter, AutoAnalysis.Line1.Point1.XY.Y, 
TestParameter, AutoAnalysis.Line1.Point1.Data.Var, 
TestParameter, AutoAnalysis.Line1.Point1.Data.Condition, 
TestParameter, AutoAnalysis.Line1.Point1.Data.Start, false
TestParameter, AutoAnalysis.Line1.Point1.Data.StartVar, 
TestParameter, AutoAnalysis.Line1.Point1.Data.StartCondition, 
TestParameter, AutoAnalysis.Line1.Point2.Type, 0
TestParameter, AutoAnalysis.Line1.Point2.XY.X, 
TestParameter, AutoAnalysis.Line1.Point2.XY.Y, 
TestParameter, AutoAnalysis.Line1.Point2.Data.Var, 
TestParameter, AutoAnalysis.Line1.Point2.Data.Condition, 
TestParameter, AutoAnalysis.Line1.Point2.Data.Start, false
TestParameter, AutoAnalysis.Line1.Point2.Data.StartVar, 
TestParameter, AutoAnalysis.Line1.Point2.Data.StartCondition, 
TestParameter, AutoAnalysis.Line1.GradientExpr, 0
TestParameter, AutoAnalysis.Line2.Enabled, false
TestParameter, AutoAnalysis.Line2.Type, 1
TestParameter, AutoAnalysis.Line2.Fix, True
TestParameter, AutoAnalysis.Line2.YAxis, 0
TestParameter, AutoAnalysis.Line2.Point1.Type, 0
TestParameter, AutoAnalysis.Line2.Point1.XY.X, 
TestParameter, AutoAnalysis.Line2.Point1.XY.Y, 
TestParameter, AutoAnalysis.Line2.Point1.Data.Var, 
TestParameter, AutoAnalysis.Line2.Point1.Data.Condition, 
TestParameter, AutoAnalysis.Line2.Point1.Data.Start, false
TestParameter, AutoAnalysis.Line2.Point1.Data.StartVar, 
TestParameter, AutoAnalysis.Line2.Point1.Data.StartCondition, 
TestParameter, AutoAnalysis.Line2.Point2.Type, 0
TestParameter, AutoAnalysis.Line2.Point2.XY.X, 
TestParameter, AutoAnalysis.Line2.Point2.XY.Y, 
TestParameter, AutoAnalysis.Line2.Point2.Data.Var, 
TestParameter, AutoAnalysis.Line2.Point2.Data.Condition, 
TestParameter, AutoAnalysis.Line2.Point2.Data.Start, false
TestParameter, AutoAnalysis.Line2.Point2.Data.StartVar, 
TestParameter, AutoAnalysis.Line2.Point2.Data.StartCondition, 
TestParameter, AutoAnalysis.Line2.GradientExpr, 0
TestParameter, AutoAnalysis.Marker.Enabled, false
TestParameter, AutoAnalysis.Marker.Data.Var, 
TestParameter, AutoAnalysis.Marker.Data.Condition, 
TestParameter, AutoAnalysis.Marker.Data.Start, false
TestParameter, AutoAnalysis.Marker.Data.StartVar, 
TestParameter, AutoAnalysis.Marker.Data.StartCondition, 
MetaData, TestRecord.EntryPoint, true
MetaData, TestRecord.RecordTime, 07/12/2024 16:43:35
MetaData, TestRecord.TestTarget, 
MetaData, TestRecord.IterationIndex, 1
MetaData, TestRecord.Preservation, true
MetaData, TestRecord.Flag, 
MetaData, TestRecord.Remarks, #63 B1 NFET idvd
MetaData, TestRecord.LinkKey, 09f7a9e5-f9b3-42b0-a8b2-85731c9a285b
Dimension1, 51, 51, 51, 51, 51
Dimension2, 7, 7, 7, 7, 7
DataName, Vd, Vg, Id, Ig, Is
DataValue, 0, 0, -1.8400000000000002E-13, 5.700000000000001E-14, 3.4400000000000005E-13
DataValue, 0.06, 0, 1.05035E-10, -1.6600000000000003E-13, -1.0727600000000001E-10
DataValue, 0.12, 0, 1.74749E-10, -3.8500000000000003E-13, -1.7506700000000002E-10
DataValue, 0.18, 0, 2.24507E-10, -4.1800000000000004E-13, -2.25541E-10
DataValue, 0.24, 0, 2.5953000000000003E-10, -4.66E-13, -2.5885000000000004E-10
DataValue, 0.3, 0, 3.0163300000000005E-10, -5.4900000000000008E-13, -3.0027600000000004E-10
DataValue, 0.36, 0, 3.4739800000000004E-10, -4.95E-13, -3.4350900000000003E-10
DataValue, 0.42, 0, 3.92534E-10, -6.4500000000000008E-13, -3.8808800000000004E-10
DataValue, 0.48, 0, 4.58391E-10, -7.03E-13, -4.5461600000000005E-10
DataValue, 0.54, 0, 5.52032E-10, -8.42E-13, -5.6855200000000009E-10
DataValue, 0.6, 0, 6.7201600000000009E-10, -7.99E-13, -6.79289E-10
DataValue, 0.66, 0, 8.75078E-10, -8.48E-13, -8.3923600000000006E-10
DataValue, 0.72, 0, 1.085053E-09, -8.1100000000000008E-13, -1.0897760000000001E-09
DataValue, 0.78, 0, 1.3521E-09, -8.25E-13, -1.42615E-09
DataValue, 0.84, 0, 1.6927E-09, -9.65E-13, -1.76111E-09
DataValue, 0.9, 0, 2.217E-09, -1.036E-12, -2.15395E-09
DataValue, 0.96, 0, 2.7613E-09, -1.0600000000000001E-12, -2.72786E-09
DataValue, 1.02, 0, 3.59104E-09, -9.77E-13, -3.56127E-09
DataValue, 1.08, 0, 4.40515E-09, -9.94E-13, -4.52798E-09
DataValue, 1.1400000000000001, 0, 5.34982E-09, -1.04E-12, -5.47419E-09
DataValue, 1.2, 0, 7.02304E-09, -1.2150000000000002E-12, -7.01432E-09
DataValue, 1.26, 0, 8.35961E-09, -1.303E-12, -8.63492E-09
DataValue, 1.32, 0, 1.061852E-08, -1.233E-12, -1.070137E-08
DataValue, 1.3800000000000001, 0, 1.2810299999999998E-08, -1.207E-12, -1.37262E-08
DataValue, 1.44, 0, 1.62607E-08, -1.3250000000000001E-12, -1.6601299999999997E-08
DataValue, 1.5, 0, 1.9137299999999998E-08, -1.2750000000000001E-12, -1.95388E-08
DataValue, 1.56, 0, 2.2908399999999998E-08, -1.533E-12, -2.3479099999999997E-08
DataValue, 1.62, 0, 2.8306999999999997E-08, -1.554E-12, -2.8804399999999996E-08
DataValue, 1.68, 0, 3.4491899999999997E-08, -1.5860000000000001E-12, -3.40696E-08
DataValue, 1.74, 0, 3.94057E-08, -1.709E-12, -4.0861199999999995E-08
DataValue, 1.8, 0, 4.8106699999999992E-08, -1.782E-12, -5.0698699999999993E-08
DataValue, 1.86, 0, 5.9296299999999993E-08, -1.934E-12, -6.17307E-08
DataValue, 1.92, 0, 7.1655799999999992E-08, -2.13E-12, -7.1422799999999993E-08
DataValue, 1.98, 0, 8.2180799999999989E-08, -2.2420000000000003E-12, -8.0791499999999986E-08
DataValue, 2.04, 0, 9.186709999999999E-08, -2.5300000000000003E-12, -9.584929999999999E-08
DataValue, 2.1, 0, 1.0580799999999999E-07, -2.7220000000000003E-12, -1.0840229999999998E-07
DataValue, 2.16, 0, 1.22904E-07, -2.8600000000000003E-12, -1.2547E-07
DataValue, 2.22, 0, 1.38477E-07, -3.2180000000000002E-12, -1.39098E-07
DataValue, 2.2800000000000002, 0, 1.56327E-07, -3.3610000000000003E-12, -1.53463E-07
DataValue, 2.34, 0, 1.72904E-07, -3.6090000000000005E-12, -1.72784E-07
DataValue, 2.4, 0, 1.94199E-07, -3.888E-12, -1.95866E-07
DataValue, 2.46, 0, 2.14942E-07, -4.218E-12, -2.18362E-07
DataValue, 2.52, 0, 2.35263E-07, -4.502E-12, -2.41203E-07
DataValue, 2.58, 0, 2.57908E-07, -4.827E-12, -2.59992E-07
DataValue, 2.64, 0, 2.82349E-07, -5.1660000000000004E-12, -2.9118699999999997E-07
DataValue, 2.7, 0, 3.15826E-07, -5.477E-12, -3.1636E-07
DataValue, 2.7600000000000002, 0, 3.42565E-07, -5.9350000000000009E-12, -3.46194E-07
DataValue, 2.82, 0, 3.7643299999999997E-07, -6.497E-12, -3.80763E-07
DataValue, 2.88, 0, 4.08916E-07, -7.0690000000000007E-12, -4.12469E-07
DataValue, 2.94, 0, 4.44598E-07, -7.6180000000000009E-12, -4.5340199999999997E-07
DataValue, 3, 0, 4.87791E-07, -8.354000000000001E-12, -4.87627E-07
DataValue, 0, 0.5, -2.82046E-09, 5.9120000000000007E-12, 2.77046E-09
DataValue, 0.06, 0.5, 9.23586E-07, 4.109E-12, -9.21677E-07
DataValue, 0.12, 0.5, 1.3790500000000002E-06, 3.158E-12, -1.3764100000000001E-06
DataValue, 0.18, 0.5, 1.5757300000000002E-06, 2.507E-12, -1.5746100000000002E-06
DataValue, 0.24, 0.5, 1.6593800000000002E-06, 2.19E-12, -1.6584700000000001E-06
DataValue, 0.3, 0.5, 1.7013200000000003E-06, 1.803E-12, -1.7007400000000001E-06
DataValue, 0.36, 0.5, 1.7311800000000001E-06, 1.504E-12, -1.7312000000000003E-06
DataValue, 0.42, 0.5, 1.75819E-06, 1.1790000000000001E-12, -1.7594600000000002E-06
DataValue, 0.48, 0.5, 1.7854500000000002E-06, 1.0770000000000002E-12, -1.7863000000000002E-06
DataValue, 0.54, 0.5, 1.8132800000000002E-06, 8.8600000000000006E-13, -1.8150800000000003E-06
DataValue, 0.6, 0.5, 1.8407900000000002E-06, 6.4500000000000008E-13, -1.8437500000000001E-06
DataValue, 0.66, 0.5, 1.8718900000000002E-06, 5.5000000000000008E-13, -1.8738800000000003E-06
DataValue, 0.72, 0.5, 1.9017300000000001E-06, 4.1E-13, -1.9045600000000001E-06
DataValue, 0.78, 0.5, 1.93423E-06, 3.9400000000000004E-13, -1.9362800000000003E-06
DataValue, 0.84, 0.5, 1.96619E-06, 2.46E-13, -1.9689600000000003E-06
DataValue, 0.9, 0.5, 1.99866E-06, 1.6700000000000002E-13, -2.00317E-06
DataValue, 0.96, 0.5, 2.03258E-06, 4.8000000000000004E-14, -2.0355800000000003E-06
DataValue, 1.02, 0.5, 2.0685200000000003E-06, -4.5000000000000004E-14, -2.07003E-06
DataValue, 1.08, 0.5, 2.1011200000000002E-06, -1.6800000000000002E-13, -2.10682E-06
DataValue, 1.1400000000000001, 0.5, 2.1388E-06, -1.22E-13, -2.1428400000000003E-06
DataValue, 1.2, 0.5, 2.1746300000000003E-06, -1.9700000000000002E-13, -2.18033E-06
DataValue, 1.26, 0.5, 2.21287E-06, -3.03E-13, -2.21631E-06
DataValue, 1.32, 0.5, 2.25252E-06, -3.0000000000000003E-13, -2.2566700000000004E-06
DataValue, 1.3800000000000001, 0.5, 2.2937200000000003E-06, -3.2500000000000003E-13, -2.29528E-06
DataValue, 1.44, 0.5, 2.3346900000000004E-06, -4.0600000000000004E-13, -2.3373400000000003E-06
DataValue, 1.5, 0.5, 2.3767900000000004E-06, -4.64E-13, -2.3795800000000003E-06
DataValue, 1.56, 0.5, 2.41788E-06, -5.85E-13, -2.4253600000000003E-06
DataValue, 1.62, 0.5, 2.4658400000000004E-06, -5.34E-13, -2.4699300000000003E-06
DataValue, 1.68, 0.5, 2.5057000000000004E-06, -5.93E-13, -2.5097300000000003E-06
DataValue, 1.74, 0.5, 2.55741E-06, -6.9300000000000008E-13, -2.55664E-06
DataValue, 1.8, 0.5, 2.6090200000000005E-06, -7.23E-13, -2.6125700000000002E-06
DataValue, 1.86, 0.5, 2.6527300000000004E-06, -7.53E-13, -2.6578500000000003E-06
DataValue, 1.92, 0.5, 2.70556E-06, -8.25E-13, -2.7142700000000004E-06
DataValue, 1.98, 0.5, 2.7633800000000004E-06, -9.010000000000001E-13, -2.7690900000000005E-06
DataValue, 2.04, 0.5, 2.81848E-06, -1.007E-12, -2.8287700000000004E-06
DataValue, 2.1, 0.5, 2.8834700000000004E-06, -1.043E-12, -2.8907700000000004E-06
DataValue, 2.16, 0.5, 2.9500700000000004E-06, -1.053E-12, -2.9539500000000003E-06
DataValue, 2.22, 0.5, 3.01964E-06, -1.147E-12, -3.0277300000000002E-06
DataValue, 2.2800000000000002, 0.5, 3.0902900000000004E-06, -1.2520000000000001E-12, -3.1028500000000003E-06
DataValue, 2.34, 0.5, 3.16342E-06, -1.3650000000000001E-12, -3.1686300000000004E-06
DataValue, 2.4, 0.5, 3.24044E-06, -1.529E-12, -3.2530800000000005E-06
DataValue, 2.46, 0.5, 3.3348100000000005E-06, -1.579E-12, -3.3445200000000005E-06
DataValue, 2.52, 0.5, 3.4301000000000004E-06, -1.7810000000000002E-12, -3.4396300000000005E-06
DataValue, 2.58, 0.5, 3.5292300000000004E-06, -1.8910000000000003E-12, -3.5482500000000003E-06
DataValue, 2.64, 0.5, 3.6386100000000005E-06, -2.157E-12, -3.6489900000000003E-06
DataValue, 2.7, 0.5, 3.7428100000000003E-06, -2.2370000000000003E-12, -3.7568100000000005E-06
DataValue, 2.7600000000000002, 0.5, 3.85508E-06, -2.4920000000000003E-12, -3.88063E-06
DataValue, 2.82, 0.5, 3.98539E-06, -2.7250000000000002E-12, -4.0064400000000006E-06
DataValue, 2.88, 0.5, 4.1303200000000006E-06, -2.8890000000000003E-12, -4.1558E-06
DataValue, 2.94, 0.5, 4.2628E-06, -3.18E-12, -4.2834500000000005E-06
DataValue, 3, 0.5, 4.40633E-06, -3.4360000000000003E-12, -4.4284700000000005E-06
DataValue, 0, 1, -3.02416E-08, 7.1320000000000007E-12, 2.9421199999999997E-08
DataValue, 0.06, 1, 1.03878E-05, 4.991E-12, -1.03806E-05
DataValue, 0.12, 1, 1.91484E-05, 4.076E-12, -1.9143E-05
DataValue, 0.18, 1, 2.64337E-05, 3.5790000000000004E-12, -2.64244E-05
DataValue, 0.24, 1, 3.23895E-05, 3.088E-12, -3.23878E-05
DataValue, 0.3, 1, 3.71434E-05, 2.527E-12, -3.71375E-05
DataValue, 0.36, 1, 4.0848E-05, 2.253E-12, -4.08478E-05
DataValue, 0.42, 1, 4.36512E-05, 1.948E-12, -4.36537E-05
DataValue, 0.48, 1, 4.57276E-05, 1.792E-12, -4.57261E-05
DataValue, 0.54, 1, 4.72209E-05, 1.4820000000000002E-12, -4.72202E-05
DataValue, 0.6, 1, 4.8279700000000005E-05, 1.2750000000000001E-12, -4.8283000000000005E-05
DataValue, 0.66, 1, 4.90476E-05, 1.2190000000000002E-12, -4.90515E-05
DataValue, 0.72, 1, 4.96285E-05, 1.124E-12, -4.96357E-05
DataValue, 0.78, 1, 5.0081400000000005E-05, 9.6000000000000015E-13, -5.00857E-05
DataValue, 0.84, 1, 5.04574E-05, 8.7E-13, -5.04696E-05
DataValue, 0.9, 1, 5.0795300000000005E-05, 6.9800000000000006E-13, -5.08051E-05
DataValue, 0.96, 1, 5.1100700000000004E-05, 6.0100000000000006E-13, -5.11139E-05
DataValue, 1.02, 1, 5.13838E-05, 4.4100000000000004E-13, -5.13894E-05
DataValue, 1.08, 1, 5.1651000000000004E-05, 4.7900000000000008E-13, -5.16582E-05
DataValue, 1.1400000000000001, 1, 5.19082E-05, 4.3000000000000004E-13, -5.19174E-05
DataValue, 1.2, 1, 5.2148400000000004E-05, 3.3400000000000004E-13, -5.21635E-05
DataValue, 1.26, 1, 5.23923E-05, 3.5600000000000005E-13, -5.23951E-05
DataValue, 1.32, 1, 5.26266E-05, 1.3E-13, -5.2636800000000004E-05
DataValue, 1.3800000000000001, 1, 5.28617E-05, 1.6200000000000002E-13, -5.28671E-05
DataValue, 1.44, 1, 5.3096E-05, 7.8000000000000008E-14, -5.3100700000000005E-05
DataValue, 1.5, 1, 5.331E-05, 2.1500000000000002E-13, -5.3319700000000004E-05
DataValue, 1.56, 1, 5.3539200000000004E-05, 3.7E-14, -5.3551400000000004E-05
DataValue, 1.62, 1, 5.37717E-05, -1.7E-14, -5.3781E-05
DataValue, 1.68, 1, 5.3990500000000004E-05, -6.9000000000000009E-14, -5.39989E-05
DataValue, 1.74, 1, 5.42198E-05, -8.6000000000000012E-14, -5.42372E-05
DataValue, 1.8, 1, 5.44523E-05, -2.5100000000000004E-13, -5.44656E-05
DataValue, 1.86, 1, 5.46712E-05, -1.1300000000000001E-13, -5.46804E-05
DataValue, 1.92, 1, 5.4908200000000004E-05, -2.7700000000000003E-13, -5.4914500000000004E-05
DataValue, 1.98, 1, 5.51442E-05, -2.0700000000000003E-13, -5.5152100000000003E-05
DataValue, 2.04, 1, 5.5369100000000005E-05, -2.0100000000000003E-13, -5.53837E-05
DataValue, 2.1, 1, 5.5618800000000004E-05, -2.6500000000000003E-13, -5.5625500000000005E-05
DataValue, 2.16, 1, 5.58703E-05, -3.2500000000000003E-13, -5.5878E-05
DataValue, 2.22, 1, 5.61084E-05, -3.3200000000000005E-13, -5.61155E-05
DataValue, 2.2800000000000002, 1, 5.6354900000000005E-05, -4.2900000000000004E-13, -5.63665E-05
DataValue, 2.34, 1, 5.66066E-05, -5.58E-13, -5.6626E-05
DataValue, 2.4, 1, 5.6879700000000004E-05, -5.13E-13, -5.6904500000000004E-05
DataValue, 2.46, 1, 5.71601E-05, -6.1800000000000009E-13, -5.71876E-05
DataValue, 2.52, 1, 5.74559E-05, -7.99E-13, -5.74904E-05
DataValue, 2.58, 1, 5.77748E-05, -8.67E-13, -5.78172E-05
DataValue, 2.64, 1, 5.81113E-05, -9.240000000000001E-13, -5.8153700000000005E-05
DataValue, 2.7, 1, 5.84861E-05, -9.38E-13, -5.85351E-05
DataValue, 2.7600000000000002, 1, 5.8872900000000003E-05, -1.1770000000000001E-12, -5.89346E-05
DataValue, 2.82, 1, 5.92917E-05, -1.4220000000000002E-12, -5.93444E-05
DataValue, 2.88, 1, 5.97255E-05, -1.6550000000000001E-12, -5.97899E-05
DataValue, 2.94, 1, 6.01844E-05, -1.5930000000000002E-12, -6.02497E-05
DataValue, 3, 1, 6.0678600000000005E-05, -1.826E-12, -6.07394E-05
DataValue, 0, 1.5, -6.6538099999999989E-08, 7.792E-12, 6.60979E-08
DataValue, 0.06, 1.5, 2.36182E-05, 5.548E-12, -2.3611500000000003E-05
DataValue, 0.12, 1.5, 4.57226E-05, 4.601E-12, -4.5717800000000005E-05
DataValue, 0.18, 1.5, 6.62962E-05, 3.888E-12, -6.62915E-05
DataValue, 0.24, 1.5, 8.53555E-05, 3.485E-12, -8.53535E-05
DataValue, 0.3, 1.5, 0.0001027732, 3.1530000000000004E-12, -0.0001027724
DataValue, 0.36, 1.5, 0.000118653, 2.624E-12, -0.00011876200000000001
DataValue, 0.42, 1.5, 0.00013283700000000002, 2.3870000000000002E-12, -0.000132952
DataValue, 0.48, 1.5, 0.00014544000000000002, 2.081E-12, -0.000145554
DataValue, 0.54, 1.5, 0.00015653700000000002, 1.968E-12, -0.000156643
DataValue, 0.6, 1.5, 0.00016609600000000002, 1.711E-12, -0.00016620600000000001
DataValue, 0.66, 1.5, 0.000174289, 1.5910000000000002E-12, -0.000174394
DataValue, 0.72, 1.5, 0.000181169, 1.3710000000000001E-12, -0.000181279
DataValue, 0.78, 1.5, 0.00018691200000000002, 1.32E-12, -0.000187025
DataValue, 0.84, 1.5, 0.000191597, 1.304E-12, -0.000191719
DataValue, 0.9, 1.5, 0.000195412, 1.0770000000000002E-12, -0.00019553000000000002
DataValue, 0.96, 1.5, 0.00019845300000000002, 9.6400000000000013E-13, -0.000198573
DataValue, 1.02, 1.5, 0.000200881, 8.91E-13, -0.000200993
DataValue, 1.08, 1.5, 0.000202813, 8.24E-13, -0.00020293600000000002
DataValue, 1.1400000000000001, 1.5, 0.000204362, 7.580000000000001E-13, -0.000204469
DataValue, 1.2, 1.5, 0.00020562100000000002, 7.4500000000000006E-13, -0.000205743
DataValue, 1.26, 1.5, 0.000206662, 6.12E-13, -0.000206782
DataValue, 1.32, 1.5, 0.00020756100000000001, 5.81E-13, -0.000207686
DataValue, 1.3800000000000001, 1.5, 0.000208335, 5.66E-13, -0.00020845500000000002
DataValue, 1.44, 1.5, 0.00020903000000000002, 4.0300000000000005E-13, -0.00020914900000000003
DataValue, 1.5, 1.5, 0.00020966000000000002, 4.1600000000000004E-13, -0.00020977700000000002
DataValue, 1.56, 1.5, 0.00021024500000000002, 3.8300000000000003E-13, -0.00021036200000000002
DataValue, 1.62, 1.5, 0.00021079300000000003, 3.6800000000000005E-13, -0.00021089900000000002
